T5F50 000:053.742   SEGGER J-Link V6.70e Log File
T5F50 000:053.920   DLL Compiled: Apr 17 2020 17:55:05
T5F50 000:053.979   Logging started @ 2020-06-03 01:51
T5F50 000:054.037 JLINK_SetWarnOutHandler(...)
T5F50 000:054.097 - 0.088ms
T5F50 000:054.160 JLINK_OpenEx(...)
T5F50 000:055.225   Firmware: J-Link ARM-OB STM32 compiled Aug 22 2012 19:52:04
T5F50 000:057.419   Hardware: V7.00
T5F50 000:057.520   S/N: 20090928
T5F50 000:057.605   OEM: SEGGER
T5F50 000:057.688   Feature(s): RDI,FlashDL,FlashBP,JFlash,GDB
T5F50 000:058.506   TELNET listener socket opened on port 19021
T5F50 000:058.656   WEBSRV Starting webserver
T5F50 000:058.812   WEBSRV Webserver running on local port 19080
T5F50 000:058.901 - 4.770ms returns "O.K."
T5F50 000:068.471 JLINK_GetEmuCaps()
T5F50 000:068.515 - 0.057ms returns 0x88EA5833
T5F50 000:068.549 JLINK_TIF_GetAvailable(...)
T5F50 000:068.769 - 0.238ms
T5F50 000:068.805 JLINK_SetErrorOutHandler(...)
T5F50 000:068.832 - 0.040ms
T5F50 000:068.879 JLINK_ExecCommand("ProjectFile = "C:\Users\Liuning\Desktop\毕业设计\飞控代码_轻木(云台角度限制)2019_10_10\MDK-ARM\JLinkSettings.ini"", ...). 
T5F50 000:080.338 - 11.500ms returns 0x00
T5F50 000:083.605 JLINK_ExecCommand("Device = STM32F103C8", ...). 
T5F50 000:088.129   Device "STM32F103C8" selected.
T5F50 000:088.572 - 4.937ms returns 0x00
T5F50 000:088.607 JLINK_ExecCommand("DisableConnectionTimeout", ...). 
T5F50 000:088.639 - 0.016ms returns 0x01
T5F50 000:088.667 JLINK_GetHardwareVersion()
T5F50 000:088.692 - 0.037ms returns 0x11170
T5F50 000:088.719 JLINK_GetDLLVersion()  returns 67005
T5F50 000:088.756 JLINK_GetFirmwareString(...)
T5F50 000:088.782 - 0.038ms
T5F50 000:099.431 JLINK_GetDLLVersion()  returns 67005
T5F50 000:099.490 JLINK_GetCompileDateTime()
T5F50 000:099.515 - 0.038ms
T5F50 000:102.007 JLINK_GetFirmwareString(...)
T5F50 000:102.044 - 0.050ms
T5F50 000:104.210 JLINK_GetHardwareVersion()
T5F50 000:104.245 - 0.047ms returns 0x11170
T5F50 000:111.147 JLINK_TIF_Select(JLINKARM_TIF_SWD)
T5F50 000:111.894 - 0.771ms returns 0x00
T5F50 000:111.955 JLINK_SetSpeed(1000)
T5F50 000:112.146 - 0.211ms
T5F50 000:112.185 JLINK_GetId()
T5F50 000:116.248   Found SW-DP with ID 0x1BA01477
T5F50 000:129.946   Found SW-DP with ID 0x1BA01477
T5F50 000:132.873   Old FW that does not support reading DPIDR via DAP jobs
T5F50 000:138.078   Unknown DP version. Assuming DPv0
T5F50 000:139.688   Scanning AP map to find all available APs
T5F50 000:144.204   AP[1]: Stopped AP scan as end of AP map has been reached
T5F50 000:145.833   AP[0]: AHB-AP (IDR: 0x14770011)
T5F50 000:149.124   Iterating through AP map to find AHB-AP to use
T5F50 000:154.535   AP[0]: Core found
T5F50 000:156.158   AP[0]: AHB-AP ROM base: 0xE00FF000
T5F50 000:160.452   CPUID register: 0x411FC231. Implementer code: 0x41 (ARM)
T5F50 000:162.096   Found Cortex-M3 r1p1, Little endian.
T5F50 000:262.852    -- Max. mem block: 0x00002C18
T5F50 000:262.933   CPU_ReadMem(4 bytes @ 0xE000EDF0)
T5F50 000:264.470   CPU_WriteMem(4 bytes @ 0xE000EDF0)
T5F50 000:265.687   CPU_ReadMem(4 bytes @ 0xE0002000)
T5F50 000:269.316   FPUnit: 6 code (BP) slots and 2 literal slots
T5F50 000:269.399   CPU_ReadMem(4 bytes @ 0xE000EDFC)
T5F50 000:270.334   CPU_WriteMem(4 bytes @ 0xE000EDFC)
T5F50 000:271.329   CPU_ReadMem(4 bytes @ 0xE0001000)
T5F50 000:272.517   CPU_WriteMem(4 bytes @ 0xE0001000)
T5F50 000:273.743   CPU_ReadMem(4 bytes @ 0xE000ED88)
T5F50 000:274.921   CPU_WriteMem(4 bytes @ 0xE000ED88)
T5F50 000:275.987   CPU_ReadMem(4 bytes @ 0xE000ED88)
T5F50 000:276.913   CPU_WriteMem(4 bytes @ 0xE000ED88)
T5F50 000:279.587   CoreSight components:
T5F50 000:282.631   ROMTbl[0] @ E00FF000
T5F50 000:282.681   CPU_ReadMem(64 bytes @ 0xE00FF000)
T5F50 000:285.534   CPU_ReadMem(32 bytes @ 0xE000EFE0)
T5F50 000:289.268   ROMTbl[0][0]: E000E000, CID: B105E00D, PID: 001BB000 SCS
T5F50 000:289.337   CPU_ReadMem(32 bytes @ 0xE0001FE0)
T5F50 000:292.842   ROMTbl[0][1]: E0001000, CID: B105E00D, PID: 001BB002 DWT
T5F50 000:292.912   CPU_ReadMem(32 bytes @ 0xE0002FE0)
T5F50 000:297.074   ROMTbl[0][2]: E0002000, CID: B105E00D, PID: 000BB003 FPB
T5F50 000:297.146   CPU_ReadMem(32 bytes @ 0xE0000FE0)
T5F50 000:302.036   ROMTbl[0][3]: E0000000, CID: B105E00D, PID: 001BB001 ITM
T5F50 000:302.105   CPU_ReadMem(32 bytes @ 0xE0040FE0)
T5F50 000:305.664   ROMTbl[0][4]: E0040000, CID: B105900D, PID: 001BB923 TPIU-Lite
T5F50 000:306.196 - 194.031ms   returns 0x1BA01477
T5F50 000:306.238 JLINK_GetDLLVersion()  returns 67005
T5F50 000:306.267 JLINK_CORE_GetFound()
T5F50 000:306.292 - 0.038ms returns 0x30000FF
T5F50 000:306.344 JLINK_GetDebugInfo(0x100 = JLINKARM_ROM_TABLE_ADDR_INDEX)
T5F50 000:306.377   Value=0xE00FF000
T5F50 000:306.415 - 0.083ms returns 0x00
T5F50 000:308.025 JLINK_GetDebugInfo(0x100 = JLINKARM_ROM_TABLE_ADDR_INDEX)
T5F50 000:308.058   Value=0xE00FF000
T5F50 000:308.095 - 0.082ms returns 0x00
T5F50 000:308.122 JLINK_GetDebugInfo(0x101 = JLINKARM_DEBUG_INFO_ETM_ADDR_INDEX)
T5F50 000:308.149   Value=0x00000000
T5F50 000:308.188 - 0.079ms returns 0x00
T5F50 000:308.227   JLINK_ReadMemEx(0xE0041FF0, 0x0010 Bytes, ..., Flags = 0x02000004)
T5F50 000:308.284   CPU_ReadMem(16 bytes @ 0xE0041FF0)
T5F50 000:310.209   Data:  00 00 00 00 00 00 00 00 00 00 00 00 00 00 00 00
T5F50 000:310.291 - 2.081ms returns 0x10
T5F50 000:310.323 JLINK_GetDebugInfo(0x102 = JLINKARM_DEBUG_INFO_MTB_ADDR_INDEX)
T5F50 000:310.349   Value=0x00000000
T5F50 000:310.386 - 0.075ms returns 0x00
T5F50 000:310.413 JLINK_GetDebugInfo(0x103 = JLINKARM_DEBUG_INFO_TPIU_ADDR_INDEX)
T5F50 000:310.438   Value=0xE0040000
T5F50 000:310.474 - 0.073ms returns 0x00
T5F50 000:310.500 JLINK_GetDebugInfo(0x104 = JLINKARM_DEBUG_INFO_ITM_ADDR_INDEX)
T5F50 000:310.525   Value=0xE0000000
T5F50 000:310.562 - 0.073ms returns 0x00
T5F50 000:310.588 JLINK_GetDebugInfo(0x105 = JLINKARM_DEBUG_INFO_DWT_ADDR_INDEX)
T5F50 000:310.613   Value=0xE0001000
T5F50 000:310.651 - 0.075ms returns 0x00
T5F50 000:310.678 JLINK_GetDebugInfo(0x106 = JLINKARM_DEBUG_INFO_FPB_ADDR_INDEX)
T5F50 000:310.704   Value=0xE0002000
T5F50 000:310.740 - 0.074ms returns 0x00
T5F50 000:310.768 JLINK_GetDebugInfo(0x107 = JLINKARM_DEBUG_INFO_NVIC_ADDR_INDEX)
T5F50 000:310.795   Value=0xE000E000
T5F50 000:310.834 - 0.078ms returns 0x00
T5F50 000:310.863 JLINK_GetDebugInfo(0x10C = JLINKARM_DEBUG_INFO_DBG_ADDR_INDEX)
T5F50 000:310.889   Value=0xE000EDF0
T5F50 000:310.925 - 0.074ms returns 0x00
T5F50 000:310.951 JLINK_GetDebugInfo(0x01 = Unknown)
T5F50 000:310.983   Value=0x00000000
T5F50 000:311.019 - 0.080ms returns 0x00
T5F50 000:311.051 JLINK_ReadMemU32(0xE000ED00, 0x0001 Items, ...)
T5F50 000:311.083   CPU_ReadMem(4 bytes @ 0xE000ED00)
T5F50 000:312.022   Data:  31 C2 1F 41
T5F50 000:312.100    - CPUID
T5F50 000:312.156 - 1.117ms returns 1
T5F50 000:312.214 JLINK_GetDebugInfo(0x10F = JLINKARM_DEBUG_INFO_HAS_CORTEX_M_SECURITY_EXT_INDEX)
T5F50 000:312.297   Value=0x00000000
T5F50 000:312.372 - 0.171ms returns 0x00
T5F50 000:312.405 JLINK_SetResetType(JLINKARM_CM3_RESET_TYPE_NORMAL)
T5F50 000:312.430 - 0.038ms returns JLINKARM_CM3_RESET_TYPE_NORMAL
T5F50 000:312.457 JLINK_Reset()
T5F50 000:312.500   CPU is running
T5F50 000:312.539   CPU_WriteMem(4 bytes @ 0xE000EDF0)
T5F50 000:313.488   CPU is running
T5F50 000:313.617   CPU_WriteMem(4 bytes @ 0xE000EDFC)
T5F50 000:316.630   Reset: Halt core after reset via DEMCR.VC_CORERESET.
T5F50 000:318.988   Reset: Reset device via AIRCR.SYSRESETREQ.
T5F50 000:319.035   CPU is running
T5F50 000:319.075   CPU_WriteMem(4 bytes @ 0xE000ED0C)
T5F50 000:373.197   CPU_ReadMem(4 bytes @ 0xE000EDF0)
T5F50 000:374.362   CPU_ReadMem(4 bytes @ 0xE000EDF0)
T5F50 000:375.492   CPU is running
T5F50 000:375.577   CPU_WriteMem(4 bytes @ 0xE000EDF0)
T5F50 000:376.602   CPU is running
T5F50 000:376.688   CPU_WriteMem(4 bytes @ 0xE000EDFC)
T5F50 000:383.786   CPU_ReadMem(4 bytes @ 0xE000EDF0)
T5F50 000:393.442   CPU_WriteMem(4 bytes @ 0xE0002000)
T5F50 000:394.760   CPU_ReadMem(4 bytes @ 0xE000EDFC)
T5F50 000:395.822   CPU_ReadMem(4 bytes @ 0xE0001000)
T5F50 000:396.805 - 84.447ms
T5F50 000:396.939 JLINK_Halt()
T5F50 000:396.974 - 0.051ms returns 0x00
T5F50 000:397.046 JLINK_ReadMemU32(0xE000EDF0, 0x0001 Items, ...)
T5F50 000:397.095   CPU_ReadMem(4 bytes @ 0xE000EDF0)
T5F50 000:398.063   Data:  03 00 03 00
T5F50 000:398.135    - DHCSR
T5F50 000:398.184 - 1.154ms returns 1
T5F50 000:398.223 JLINK_WriteU32(0xE000EDF0, 0xA05F0003)
T5F50 000:398.258    - DHCSR
T5F50 000:398.329   CPU_WriteMem(4 bytes @ 0xE000EDF0)
T5F50 000:399.437 - 1.242ms returns 0
T5F50 000:399.488 JLINK_WriteU32(0xE000EDFC, 0x01000000)
T5F50 000:399.523    - DEMCR
T5F50 000:399.577   CPU_WriteMem(4 bytes @ 0xE000EDFC)
T5F50 000:400.551 - 1.092ms returns 0
T5F50 000:410.551 JLINK_GetHWStatus(...)
T5F50 000:410.840 - 0.309ms returns 0x00
T5F50 000:415.825 JLINK_GetNumBPUnits(Type = 0xFFFFFF00)
T5F50 000:415.869 - 0.057ms returns 0x06
T5F50 000:415.897 JLINK_GetNumBPUnits(Type = 0xF0)
T5F50 000:415.923 - 0.038ms returns 0x2000
T5F50 000:415.951 JLINK_GetNumWPUnits()
T5F50 000:415.975 - 0.037ms returns 0x04
T5F50 000:420.478 JLINK_GetSpeed()
T5F50 000:420.514 - 0.049ms returns 0x3E8
T5F50 000:423.432 JLINK_ReadMemU32(0xE000E004, 0x0001 Items, ...)
T5F50 000:423.475   CPU_ReadMem(4 bytes @ 0xE000E004)
T5F50 000:424.709   Data:  01 00 00 00
T5F50 000:424.777 - 1.358ms returns 1
T5F50 000:424.809 JLINK_ReadMemU32(0xE000E004, 0x0001 Items, ...)
T5F50 000:424.843   CPU_ReadMem(4 bytes @ 0xE000E004)
T5F50 000:426.142   Data:  01 00 00 00
T5F50 000:426.210 - 1.413ms returns 1
T5F50 000:426.242 JLINK_WriteMemEx(0xE0001000, 0x001C Bytes, ..., Flags = 0x02000004)
T5F50 000:426.269   Data:  01 00 00 00 00 00 00 00 00 00 00 00 00 00 00 00 ...
T5F50 000:426.729   CPU_WriteMem(28 bytes @ 0xE0001000)
T5F50 000:428.443 - 2.243ms returns 0x1C
T5F50 000:428.511 JLINK_Halt()
T5F50 000:428.541 - 0.044ms returns 0x00
T5F50 000:428.572 JLINK_IsHalted()
T5F50 000:428.601 - 0.043ms returns TRUE
T5F50 000:434.174 JLINK_WriteMem(0x20000000, 0x0164 Bytes, ...)
T5F50 000:434.217   Data:  00 BE 0A E0 0D 78 2D 06 68 40 08 24 40 00 00 D3 ...
T5F50 000:434.655   CPU_WriteMem(356 bytes @ 0x20000000)
T5F50 000:446.682 - 12.540ms returns 0x164
T5F50 000:446.760 JLINK_WriteReg(R0, 0x08000000)
T5F50 000:446.795 - 0.047ms returns 0x00
T5F50 000:446.823 JLINK_WriteReg(R1, 0x00B71B00)
T5F50 000:446.849 - 0.039ms returns 0x00
T5F50 000:446.877 JLINK_WriteReg(R2, 0x00000001)
T5F50 000:446.903 - 0.039ms returns 0x00
T5F50 000:446.931 JLINK_WriteReg(R3, 0x00000000)
T5F50 000:446.957 - 0.039ms returns 0x00
T5F50 000:446.984 JLINK_WriteReg(R4, 0x00000000)
T5F50 000:447.011 - 0.040ms returns 0x00
T5F50 000:447.039 JLINK_WriteReg(R5, 0x00000000)
T5F50 000:447.067 - 0.040ms returns 0x00
T5F50 000:447.095 JLINK_WriteReg(R6, 0x00000000)
T5F50 000:447.120 - 0.038ms returns 0x00
T5F50 000:447.148 JLINK_WriteReg(R7, 0x00000000)
T5F50 000:447.174 - 0.039ms returns 0x00
T5F50 000:447.201 JLINK_WriteReg(R8, 0x00000000)
T5F50 000:447.228 - 0.039ms returns 0x00
T5F50 000:447.255 JLINK_WriteReg(R9, 0x20000160)
T5F50 000:447.281 - 0.039ms returns 0x00
T5F50 000:447.309 JLINK_WriteReg(R10, 0x00000000)
T5F50 000:447.335 - 0.040ms returns 0x00
T5F50 000:447.364 JLINK_WriteReg(R11, 0x00000000)
T5F50 000:447.390 - 0.039ms returns 0x00
T5F50 000:447.417 JLINK_WriteReg(R12, 0x00000000)
T5F50 000:447.444 - 0.039ms returns 0x00
T5F50 000:447.471 JLINK_WriteReg(R13 (SP), 0x20000800)
T5F50 000:447.498 - 0.041ms returns 0x00
T5F50 000:447.527 JLINK_WriteReg(R14, 0x20000001)
T5F50 000:447.553 - 0.039ms returns 0x00
T5F50 000:447.580 JLINK_WriteReg(R15 (PC), 0x20000038)
T5F50 000:447.607 - 0.039ms returns 0x00
T5F50 000:447.634 JLINK_WriteReg(XPSR, 0x01000000)
T5F50 000:447.660 - 0.038ms returns 0x00
T5F50 000:447.687 JLINK_WriteReg(MSP, 0x20000800)
T5F50 000:447.713 - 0.038ms returns 0x00
T5F50 000:447.740 JLINK_WriteReg(PSP, 0x20000800)
T5F50 000:447.766 - 0.039ms returns 0x00
T5F50 000:447.794 JLINK_WriteReg(CFBP, 0x00000000)
T5F50 000:447.820 - 0.038ms returns 0x00
T5F50 000:447.848   JLINK_SetBPEx(Addr = 0x20000000, Type = 0xFFFFFFF2)
T5F50 000:447.896   CPU_ReadMem(2 bytes @ 0x20000000)
T5F50 000:449.116 - 1.310ms returns 0x00000001
T5F50 000:449.182 JLINK_Go()
T5F50 000:449.214   CPU_WriteMem(2 bytes @ 0x20000000)
T5F50 000:450.617   CPU_ReadMem(4 bytes @ 0xE0001000)
T5F50 000:452.021   CPU_WriteMem(4 bytes @ 0xE0002008)
T5F50 000:452.090   CPU_WriteMem(4 bytes @ 0xE000200C)
T5F50 000:452.131   CPU_WriteMem(4 bytes @ 0xE0002010)
T5F50 000:452.169   CPU_WriteMem(4 bytes @ 0xE0002014)
T5F50 000:452.213   CPU_WriteMem(4 bytes @ 0xE0002018)
T5F50 000:452.252   CPU_WriteMem(4 bytes @ 0xE000201C)
T5F50 000:457.316   CPU_WriteMem(4 bytes @ 0xE0001004)
T5F50 000:465.479 - 16.326ms
T5F50 000:465.530 JLINK_IsHalted()
T5F50 000:473.697   CPU_ReadMem(2 bytes @ 0x20000000)
T5F50 000:474.699 - 9.209ms returns TRUE
T5F50 000:474.764 JLINK_ReadReg(R15 (PC))
T5F50 000:474.795 - 0.045ms returns 0x20000000
T5F50 000:474.853 JLINK_ClrBPEx(BPHandle = 0x00000001)
T5F50 000:474.881 - 0.041ms returns 0x00
T5F50 000:474.910 JLINK_ReadReg(R0)
T5F50 000:474.937 - 0.040ms returns 0x00000000
T5F50 000:475.864 JLINK_WriteReg(R0, 0x08000000)
T5F50 000:475.916 - 0.066ms returns 0x00
T5F50 000:475.947 JLINK_WriteReg(R1, 0x00B71B00)
T5F50 000:475.975 - 0.042ms returns 0x00
T5F50 000:476.005 JLINK_WriteReg(R2, 0x00000001)
T5F50 000:476.033 - 0.041ms returns 0x00
T5F50 000:476.063 JLINK_WriteReg(R3, 0x00000000)
T5F50 000:476.091 - 0.042ms returns 0x00
T5F50 000:476.120 JLINK_WriteReg(R4, 0x00000000)
T5F50 000:476.148 - 0.042ms returns 0x00
T5F50 000:476.178 JLINK_WriteReg(R5, 0x00000000)
T5F50 000:476.207 - 0.045ms returns 0x00
T5F50 000:476.239 JLINK_WriteReg(R6, 0x00000000)
T5F50 000:476.267 - 0.042ms returns 0x00
T5F50 000:476.296 JLINK_WriteReg(R7, 0x00000000)
T5F50 000:476.324 - 0.041ms returns 0x00
T5F50 000:476.354 JLINK_WriteReg(R8, 0x00000000)
T5F50 000:476.398 - 0.058ms returns 0x00
T5F50 000:476.428 JLINK_WriteReg(R9, 0x20000160)
T5F50 000:476.457 - 0.043ms returns 0x00
T5F50 000:476.488 JLINK_WriteReg(R10, 0x00000000)
T5F50 000:476.517 - 0.044ms returns 0x00
T5F50 000:476.547 JLINK_WriteReg(R11, 0x00000000)
T5F50 000:476.575 - 0.042ms returns 0x00
T5F50 000:476.606 JLINK_WriteReg(R12, 0x00000000)
T5F50 000:476.634 - 0.042ms returns 0x00
T5F50 000:476.663 JLINK_WriteReg(R13 (SP), 0x20000800)
T5F50 000:476.692 - 0.042ms returns 0x00
T5F50 000:476.722 JLINK_WriteReg(R14, 0x20000001)
T5F50 000:476.750 - 0.042ms returns 0x00
T5F50 000:476.780 JLINK_WriteReg(R15 (PC), 0x2000007C)
T5F50 000:476.808 - 0.042ms returns 0x00
T5F50 000:476.837 JLINK_WriteReg(XPSR, 0x01000000)
T5F50 000:476.865 - 0.042ms returns 0x00
T5F50 000:476.895 JLINK_WriteReg(MSP, 0x20000800)
T5F50 000:476.923 - 0.042ms returns 0x00
T5F50 000:476.952 JLINK_WriteReg(PSP, 0x20000800)
T5F50 000:476.981 - 0.042ms returns 0x00
T5F50 000:477.012 JLINK_WriteReg(CFBP, 0x00000000)
T5F50 000:477.040 - 0.042ms returns 0x00
T5F50 000:477.070   JLINK_SetBPEx(Addr = 0x20000000, Type = 0xFFFFFFF2)
T5F50 000:477.113 - 0.057ms returns 0x00000002
T5F50 000:477.143 JLINK_Go()
T5F50 000:477.180   CPU_ReadMem(4 bytes @ 0xE0001000)
T5F50 000:485.725 - 8.627ms
T5F50 000:485.795 JLINK_IsHalted()
T5F50 000:486.967 - 1.218ms returns FALSE
T5F50 000:497.579 JLINK_IsHalted()
T5F50 000:498.652 - 1.114ms returns FALSE
T5F50 000:500.643 JLINK_IsHalted()
T5F50 000:501.879 - 1.278ms returns FALSE
T5F50 000:503.926 JLINK_IsHalted()
T5F50 000:504.982 - 1.097ms returns FALSE
T5F50 000:506.923 JLINK_IsHalted()
T5F50 000:514.972   CPU_ReadMem(2 bytes @ 0x20000000)
T5F50 000:515.991 - 9.110ms returns TRUE
T5F50 000:516.054 JLINK_ReadReg(R15 (PC))
T5F50 000:516.086 - 0.046ms returns 0x20000000
T5F50 000:516.116 JLINK_ClrBPEx(BPHandle = 0x00000002)
T5F50 000:516.145 - 0.042ms returns 0x00
T5F50 000:516.174 JLINK_ReadReg(R0)
T5F50 000:516.201 - 0.040ms returns 0x00000000
T5F50 000:568.501 JLINK_WriteReg(R0, 0x00000001)
T5F50 000:568.551 - 0.064ms returns 0x00
T5F50 000:568.579 JLINK_WriteReg(R1, 0x00B71B00)
T5F50 000:568.606 - 0.039ms returns 0x00
T5F50 000:568.667 JLINK_WriteReg(R2, 0x00000001)
T5F50 000:568.697 - 0.042ms returns 0x00
T5F50 000:568.739 JLINK_WriteReg(R3, 0x00000000)
T5F50 000:568.779 - 0.052ms returns 0x00
T5F50 000:568.806 JLINK_WriteReg(R4, 0x00000000)
T5F50 000:568.832 - 0.039ms returns 0x00
T5F50 000:568.859 JLINK_WriteReg(R5, 0x00000000)
T5F50 000:568.898 - 0.052ms returns 0x00
T5F50 000:568.926 JLINK_WriteReg(R6, 0x00000000)
T5F50 000:568.979 - 0.066ms returns 0x00
T5F50 000:569.006 JLINK_WriteReg(R7, 0x00000000)
T5F50 000:569.059 - 0.079ms returns 0x00
T5F50 000:569.114 JLINK_WriteReg(R8, 0x00000000)
T5F50 000:569.173 - 0.071ms returns 0x00
T5F50 000:569.214 JLINK_WriteReg(R9, 0x20000160)
T5F50 000:569.253 - 0.079ms returns 0x00
T5F50 000:569.321 JLINK_WriteReg(R10, 0x00000000)
T5F50 000:569.395 - 0.100ms returns 0x00
T5F50 000:569.458 JLINK_WriteReg(R11, 0x00000000)
T5F50 000:569.499 - 0.073ms returns 0x00
T5F50 000:569.546 JLINK_WriteReg(R12, 0x00000000)
T5F50 000:569.572 - 0.052ms returns 0x00
T5F50 000:569.613 JLINK_WriteReg(R13 (SP), 0x20000800)
T5F50 000:569.654 - 0.054ms returns 0x00
T5F50 000:569.682 JLINK_WriteReg(R14, 0x20000001)
T5F50 000:569.722 - 0.053ms returns 0x00
T5F50 000:569.749 JLINK_WriteReg(R15 (PC), 0x2000006A)
T5F50 000:569.775 - 0.038ms returns 0x00
T5F50 000:569.803 JLINK_WriteReg(XPSR, 0x01000000)
T5F50 000:569.829 - 0.039ms returns 0x00
T5F50 000:569.857 JLINK_WriteReg(MSP, 0x20000800)
T5F50 000:569.883 - 0.039ms returns 0x00
T5F50 000:569.910 JLINK_WriteReg(PSP, 0x20000800)
T5F50 000:569.936 - 0.038ms returns 0x00
T5F50 000:569.963 JLINK_WriteReg(CFBP, 0x00000000)
T5F50 000:569.989 - 0.057ms returns 0x00
T5F50 000:570.036   JLINK_SetBPEx(Addr = 0x20000000, Type = 0xFFFFFFF2)
T5F50 000:570.109 - 0.100ms returns 0x00000003
T5F50 000:570.150 JLINK_Go()
T5F50 000:570.199   CPU_ReadMem(4 bytes @ 0xE0001000)
T5F50 000:578.622 - 8.516ms
T5F50 000:578.691 JLINK_IsHalted()
T5F50 000:586.755   CPU_ReadMem(2 bytes @ 0x20000000)
T5F50 000:587.679 - 9.011ms returns TRUE
T5F50 000:587.722 JLINK_ReadReg(R15 (PC))
T5F50 000:587.751 - 0.042ms returns 0x20000000
T5F50 000:587.804 JLINK_ClrBPEx(BPHandle = 0x00000003)
T5F50 000:587.830 - 0.039ms returns 0x00
T5F50 000:587.858 JLINK_ReadReg(R0)
T5F50 000:587.885 - 0.039ms returns 0x00000000
T5F50 000:591.509 JLINK_WriteMem(0x20000000, 0x0164 Bytes, ...)
T5F50 000:591.544   Data:  00 BE 0A E0 0D 78 2D 06 68 40 08 24 40 00 00 D3 ...
T5F50 000:591.587   CPU_WriteMem(356 bytes @ 0x20000000)
T5F50 000:603.841 - 12.368ms returns 0x164
T5F50 000:603.925 JLINK_WriteReg(R0, 0x08000000)
T5F50 000:603.956 - 0.045ms returns 0x00
T5F50 000:603.984 JLINK_WriteReg(R1, 0x00B71B00)
T5F50 000:604.011 - 0.039ms returns 0x00
T5F50 000:604.038 JLINK_WriteReg(R2, 0x00000002)
T5F50 000:604.064 - 0.039ms returns 0x00
T5F50 000:604.092 JLINK_WriteReg(R3, 0x00000000)
T5F50 000:604.118 - 0.038ms returns 0x00
T5F50 000:604.145 JLINK_WriteReg(R4, 0x00000000)
T5F50 000:604.171 - 0.039ms returns 0x00
T5F50 000:604.199 JLINK_WriteReg(R5, 0x00000000)
T5F50 000:604.226 - 0.040ms returns 0x00
T5F50 000:604.254 JLINK_WriteReg(R6, 0x00000000)
T5F50 000:604.285 - 0.044ms returns 0x00
T5F50 000:604.314 JLINK_WriteReg(R7, 0x00000000)
T5F50 000:604.340 - 0.039ms returns 0x00
T5F50 000:604.367 JLINK_WriteReg(R8, 0x00000000)
T5F50 000:604.394 - 0.039ms returns 0x00
T5F50 000:604.421 JLINK_WriteReg(R9, 0x20000160)
T5F50 000:604.448 - 0.039ms returns 0x00
T5F50 000:604.475 JLINK_WriteReg(R10, 0x00000000)
T5F50 000:604.501 - 0.039ms returns 0x00
T5F50 000:604.529 JLINK_WriteReg(R11, 0x00000000)
T5F50 000:604.556 - 0.040ms returns 0x00
T5F50 000:604.584 JLINK_WriteReg(R12, 0x00000000)
T5F50 000:604.609 - 0.038ms returns 0x00
T5F50 000:604.637 JLINK_WriteReg(R13 (SP), 0x20000800)
T5F50 000:604.664 - 0.039ms returns 0x00
T5F50 000:604.691 JLINK_WriteReg(R14, 0x20000001)
T5F50 000:604.717 - 0.038ms returns 0x00
T5F50 000:604.744 JLINK_WriteReg(R15 (PC), 0x20000038)
T5F50 000:604.771 - 0.039ms returns 0x00
T5F50 000:604.798 JLINK_WriteReg(XPSR, 0x01000000)
T5F50 000:604.826 - 0.044ms returns 0x00
T5F50 000:604.857 JLINK_WriteReg(MSP, 0x20000800)
T5F50 000:604.883 - 0.039ms returns 0x00
T5F50 000:604.910 JLINK_WriteReg(PSP, 0x20000800)
T5F50 000:604.936 - 0.038ms returns 0x00
T5F50 000:604.963 JLINK_WriteReg(CFBP, 0x00000000)
T5F50 000:604.989 - 0.040ms returns 0x00
T5F50 000:605.018   JLINK_SetBPEx(Addr = 0x20000000, Type = 0xFFFFFFF2)
T5F50 000:605.061   CPU_ReadMem(2 bytes @ 0x20000000)
T5F50 000:606.397 - 1.400ms returns 0x00000004
T5F50 000:606.436 JLINK_Go()
T5F50 000:606.465   CPU_WriteMem(2 bytes @ 0x20000000)
T5F50 000:607.803   CPU_ReadMem(4 bytes @ 0xE0001000)
T5F50 000:616.381 - 9.991ms
T5F50 000:616.454 JLINK_IsHalted()
T5F50 000:624.839   CPU_ReadMem(2 bytes @ 0x20000000)
T5F50 000:625.850 - 9.418ms returns TRUE
T5F50 000:625.896 JLINK_ReadReg(R15 (PC))
T5F50 000:625.929 - 0.047ms returns 0x20000000
T5F50 000:625.987 JLINK_ClrBPEx(BPHandle = 0x00000004)
T5F50 000:626.016 - 0.043ms returns 0x00
T5F50 000:626.047 JLINK_ReadReg(R0)
T5F50 000:626.075 - 0.042ms returns 0x00000000
T5F50 000:626.368 JLINK_WriteMem(0x20000164, 0x029C Bytes, ...)
T5F50 000:626.402   Data:  70 41 00 20 45 01 00 08 75 4E 00 08 B5 46 00 08 ...
T5F50 000:626.450   CPU_WriteMem(668 bytes @ 0x20000164)
T5F50 000:647.854 - 21.520ms returns 0x29C
T5F50 000:647.909 JLINK_WriteMem(0x20000400, 0x0164 Bytes, ...)
T5F50 000:647.939   Data:  30 B4 80 EA 01 02 02 F0 00 45 30 F0 00 42 21 F0 ...
T5F50 000:647.994   CPU_WriteMem(356 bytes @ 0x20000400)
T5F50 000:660.659 - 12.798ms returns 0x164
T5F50 000:660.745 JLINK_WriteReg(R0, 0x08000000)
T5F50 000:660.788 - 0.061ms returns 0x00
T5F50 000:660.861 JLINK_WriteReg(R1, 0x00000400)
T5F50 000:660.898 - 0.055ms returns 0x00
T5F50 000:660.937 JLINK_WriteReg(R2, 0x20000164)
T5F50 000:660.973 - 0.054ms returns 0x00
T5F50 000:661.011 JLINK_WriteReg(R3, 0x00000000)
T5F50 000:661.047 - 0.053ms returns 0x00
T5F50 000:661.085 JLINK_WriteReg(R4, 0x00000000)
T5F50 000:661.121 - 0.054ms returns 0x00
T5F50 000:661.159 JLINK_WriteReg(R5, 0x00000000)
T5F50 000:661.195 - 0.053ms returns 0x00
T5F50 000:661.233 JLINK_WriteReg(R6, 0x00000000)
T5F50 000:661.269 - 0.053ms returns 0x00
T5F50 000:661.307 JLINK_WriteReg(R7, 0x00000000)
T5F50 000:661.343 - 0.053ms returns 0x00
T5F50 000:661.381 JLINK_WriteReg(R8, 0x00000000)
T5F50 000:661.419 - 0.056ms returns 0x00
T5F50 000:661.458 JLINK_WriteReg(R9, 0x20000160)
T5F50 000:661.494 - 0.054ms returns 0x00
T5F50 000:661.534 JLINK_WriteReg(R10, 0x00000000)
T5F50 000:661.571 - 0.056ms returns 0x00
T5F50 000:661.611 JLINK_WriteReg(R11, 0x00000000)
T5F50 000:661.648 - 0.058ms returns 0x00
T5F50 000:661.694 JLINK_WriteReg(R12, 0x00000000)
T5F50 000:661.731 - 0.055ms returns 0x00
T5F50 000:661.769 JLINK_WriteReg(R13 (SP), 0x20000800)
T5F50 000:661.807 - 0.055ms returns 0x00
T5F50 000:661.845 JLINK_WriteReg(R14, 0x20000001)
T5F50 000:661.880 - 0.053ms returns 0x00
T5F50 000:661.918 JLINK_WriteReg(R15 (PC), 0x200000F4)
T5F50 000:661.955 - 0.054ms returns 0x00
T5F50 000:661.993 JLINK_WriteReg(XPSR, 0x01000000)
T5F50 000:662.029 - 0.054ms returns 0x00
T5F50 000:662.067 JLINK_WriteReg(MSP, 0x20000800)
T5F50 000:662.103 - 0.053ms returns 0x00
T5F50 000:662.140 JLINK_WriteReg(PSP, 0x20000800)
T5F50 000:662.176 - 0.053ms returns 0x00
T5F50 000:662.214 JLINK_WriteReg(CFBP, 0x00000000)
T5F50 000:662.250 - 0.053ms returns 0x00
T5F50 000:662.288   JLINK_SetBPEx(Addr = 0x20000000, Type = 0xFFFFFFF2)
T5F50 000:662.343 - 0.072ms returns 0x00000005
T5F50 000:662.381 JLINK_Go()
T5F50 000:662.428   CPU_ReadMem(4 bytes @ 0xE0001000)
T5F50 000:670.722 - 8.383ms
T5F50 000:670.787 JLINK_IsHalted()
T5F50 000:672.064 - 1.320ms returns FALSE
T5F50 000:678.489 JLINK_IsHalted()
T5F50 000:679.483 - 1.036ms returns FALSE
T5F50 000:681.613 JLINK_IsHalted()
T5F50 000:682.650 - 1.078ms returns FALSE
T5F50 000:684.638 JLINK_IsHalted()
T5F50 000:685.636 - 1.057ms returns FALSE
T5F50 000:687.578 JLINK_IsHalted()
T5F50 000:688.603 - 1.070ms returns FALSE
T5F50 000:690.575 JLINK_IsHalted()
T5F50 000:691.598 - 1.070ms returns FALSE
T5F50 000:693.543 JLINK_IsHalted()
T5F50 000:694.516 - 1.008ms returns FALSE
T5F50 000:697.567 JLINK_IsHalted()
T5F50 000:698.628 - 1.081ms returns FALSE
T5F50 000:700.600 JLINK_IsHalted()
T5F50 000:708.751   CPU_ReadMem(2 bytes @ 0x20000000)
T5F50 000:709.721 - 9.157ms returns TRUE
T5F50 000:709.781 JLINK_ReadReg(R15 (PC))
T5F50 000:709.816 - 0.051ms returns 0x20000000
T5F50 000:709.849 JLINK_ClrBPEx(BPHandle = 0x00000005)
T5F50 000:709.881 - 0.047ms returns 0x00
T5F50 000:709.914 JLINK_ReadReg(R0)
T5F50 000:709.945 - 0.046ms returns 0x00000000
T5F50 000:710.595 JLINK_WriteMem(0x20000164, 0x029C Bytes, ...)
T5F50 000:710.637   Data:  B6 19 6D 41 11 E0 6D 08 4F EA 36 06 45 EA C0 75 ...
T5F50 000:710.688   CPU_WriteMem(668 bytes @ 0x20000164)
T5F50 000:732.483 - 21.932ms returns 0x29C
T5F50 000:732.555 JLINK_WriteMem(0x20000400, 0x0164 Bytes, ...)
T5F50 000:732.588   Data:  00 F0 00 42 20 F0 00 40 C1 0D C0 F3 16 00 40 F4 ...
T5F50 000:732.642   CPU_WriteMem(356 bytes @ 0x20000400)
T5F50 000:745.208 - 12.694ms returns 0x164
T5F50 000:745.301 JLINK_WriteReg(R0, 0x08000400)
T5F50 000:745.331 - 0.044ms returns 0x00
T5F50 000:745.359 JLINK_WriteReg(R1, 0x00000400)
T5F50 000:745.385 - 0.039ms returns 0x00
T5F50 000:745.413 JLINK_WriteReg(R2, 0x20000164)
T5F50 000:745.439 - 0.039ms returns 0x00
T5F50 000:745.466 JLINK_WriteReg(R3, 0x00000000)
T5F50 000:745.492 - 0.038ms returns 0x00
T5F50 000:745.519 JLINK_WriteReg(R4, 0x00000000)
T5F50 000:745.545 - 0.038ms returns 0x00
T5F50 000:745.572 JLINK_WriteReg(R5, 0x00000000)
T5F50 000:745.598 - 0.039ms returns 0x00
T5F50 000:745.625 JLINK_WriteReg(R6, 0x00000000)
T5F50 000:745.651 - 0.038ms returns 0x00
T5F50 000:745.678 JLINK_WriteReg(R7, 0x00000000)
T5F50 000:745.704 - 0.038ms returns 0x00
T5F50 000:745.731 JLINK_WriteReg(R8, 0x00000000)
T5F50 000:745.757 - 0.038ms returns 0x00
T5F50 000:745.784 JLINK_WriteReg(R9, 0x20000160)
T5F50 000:745.811 - 0.039ms returns 0x00
T5F50 000:745.839 JLINK_WriteReg(R10, 0x00000000)
T5F50 000:745.865 - 0.039ms returns 0x00
T5F50 000:745.893 JLINK_WriteReg(R11, 0x00000000)
T5F50 000:745.919 - 0.038ms returns 0x00
T5F50 000:745.946 JLINK_WriteReg(R12, 0x00000000)
T5F50 000:745.972 - 0.039ms returns 0x00
T5F50 000:746.000 JLINK_WriteReg(R13 (SP), 0x20000800)
T5F50 000:746.026 - 0.039ms returns 0x00
T5F50 000:746.054 JLINK_WriteReg(R14, 0x20000001)
T5F50 000:746.079 - 0.038ms returns 0x00
T5F50 000:746.106 JLINK_WriteReg(R15 (PC), 0x200000F4)
T5F50 000:746.131 - 0.039ms returns 0x00
T5F50 000:746.160 JLINK_WriteReg(XPSR, 0x01000000)
T5F50 000:746.211 - 0.079ms returns 0x00
T5F50 000:746.254 JLINK_WriteReg(MSP, 0x20000800)
T5F50 000:746.280 - 0.038ms returns 0x00
T5F50 000:746.306 JLINK_WriteReg(PSP, 0x20000800)
T5F50 000:746.332 - 0.038ms returns 0x00
T5F50 000:746.359 JLINK_WriteReg(CFBP, 0x00000000)
T5F50 000:746.384 - 0.037ms returns 0x00
T5F50 000:746.411   JLINK_SetBPEx(Addr = 0x20000000, Type = 0xFFFFFFF2)
T5F50 000:746.453 - 0.055ms returns 0x00000006
T5F50 000:746.480 JLINK_Go()
T5F50 000:746.513   CPU_ReadMem(4 bytes @ 0xE0001000)
T5F50 000:754.655 - 8.291ms
T5F50 000:754.851 JLINK_IsHalted()
T5F50 000:756.036 - 1.279ms returns FALSE
T5F50 000:763.286 JLINK_IsHalted()
T5F50 000:765.314 - 2.167ms returns FALSE
T5F50 000:774.217 JLINK_IsHalted()
T5F50 000:775.421 - 1.294ms returns FALSE
T5F50 000:777.184 JLINK_IsHalted()
T5F50 000:778.359 - 1.265ms returns FALSE
T5F50 000:780.174 JLINK_IsHalted()
T5F50 000:781.307 - 1.224ms returns FALSE
T5F50 000:787.346 JLINK_IsHalted()
T5F50 000:795.339   CPU_ReadMem(2 bytes @ 0x20000000)
T5F50 000:796.400 - 9.094ms returns TRUE
T5F50 000:796.464 JLINK_ReadReg(R15 (PC))
T5F50 000:796.494 - 0.043ms returns 0x20000000
T5F50 000:796.550 JLINK_ClrBPEx(BPHandle = 0x00000006)
T5F50 000:796.577 - 0.040ms returns 0x00
T5F50 000:796.604 JLINK_ReadReg(R0)
T5F50 000:796.630 - 0.038ms returns 0x00000000
T5F50 000:797.112 JLINK_WriteMem(0x20000164, 0x029C Bytes, ...)
T5F50 000:797.154   Data:  C0 F1 00 40 00 29 01 DB C1 F1 00 41 81 42 70 47 ...
T5F50 000:797.207   CPU_WriteMem(668 bytes @ 0x20000164)
T5F50 000:818.742 - 21.669ms returns 0x29C
T5F50 000:818.802 JLINK_WriteMem(0x20000400, 0x0164 Bytes, ...)
T5F50 000:818.829   Data:  03 E0 10 F8 01 6B 01 F8 01 6B 5B 1E F9 D1 2B 07 ...
T5F50 000:818.876   CPU_WriteMem(356 bytes @ 0x20000400)
T5F50 000:830.954 - 12.267ms returns 0x164
T5F50 000:831.170 JLINK_WriteReg(R0, 0x08000800)
T5F50 000:831.297 - 0.184ms returns 0x00
T5F50 000:831.517 JLINK_WriteReg(R1, 0x00000400)
T5F50 000:831.631 - 0.168ms returns 0x00
T5F50 000:831.749 JLINK_WriteReg(R2, 0x20000164)
T5F50 000:831.860 - 0.166ms returns 0x00
T5F50 000:831.981 JLINK_WriteReg(R3, 0x00000000)
T5F50 000:832.093 - 0.190ms returns 0x00
T5F50 000:832.233 JLINK_WriteReg(R4, 0x00000000)
T5F50 000:832.344 - 0.166ms returns 0x00
T5F50 000:832.463 JLINK_WriteReg(R5, 0x00000000)
T5F50 000:832.573 - 0.166ms returns 0x00
T5F50 000:832.691 JLINK_WriteReg(R6, 0x00000000)
T5F50 000:832.802 - 0.166ms returns 0x00
T5F50 000:832.919 JLINK_WriteReg(R7, 0x00000000)
T5F50 000:833.082 - 0.218ms returns 0x00
T5F50 000:833.200 JLINK_WriteReg(R8, 0x00000000)
T5F50 000:833.311 - 0.166ms returns 0x00
T5F50 000:833.429 JLINK_WriteReg(R9, 0x20000160)
T5F50 000:833.540 - 0.166ms returns 0x00
T5F50 000:833.657 JLINK_WriteReg(R10, 0x00000000)
T5F50 000:833.768 - 0.166ms returns 0x00
T5F50 000:833.885 JLINK_WriteReg(R11, 0x00000000)
T5F50 000:834.003 - 0.175ms returns 0x00
T5F50 000:834.124 JLINK_WriteReg(R12, 0x00000000)
T5F50 000:834.238 - 0.171ms returns 0x00
T5F50 000:834.357 JLINK_WriteReg(R13 (SP), 0x20000800)
T5F50 000:834.471 - 0.169ms returns 0x00
T5F50 000:834.590 JLINK_WriteReg(R14, 0x20000001)
T5F50 000:834.702 - 0.167ms returns 0x00
T5F50 000:834.820 JLINK_WriteReg(R15 (PC), 0x200000F4)
T5F50 000:834.932 - 0.170ms returns 0x00
T5F50 000:835.054 JLINK_WriteReg(XPSR, 0x01000000)
T5F50 000:835.165 - 0.167ms returns 0x00
T5F50 000:835.283 JLINK_WriteReg(MSP, 0x20000800)
T5F50 000:835.395 - 0.166ms returns 0x00
T5F50 000:835.512 JLINK_WriteReg(PSP, 0x20000800)
T5F50 000:835.624 - 0.167ms returns 0x00
T5F50 000:835.741 JLINK_WriteReg(CFBP, 0x00000000)
T5F50 000:835.852 - 0.166ms returns 0x00
T5F50 000:835.976   JLINK_SetBPEx(Addr = 0x20000000, Type = 0xFFFFFFF2)
T5F50 000:836.143 - 0.226ms returns 0x00000007
T5F50 000:836.261 JLINK_Go()
T5F50 000:836.396   CPU_ReadMem(4 bytes @ 0xE0001000)
T5F50 000:845.817 - 9.682ms
T5F50 000:846.026 JLINK_IsHalted()
T5F50 000:847.193 - 1.288ms returns FALSE
T5F50 000:857.204 JLINK_IsHalted()
T5F50 000:858.161 - 1.005ms returns FALSE
T5F50 000:859.931 JLINK_IsHalted()
T5F50 000:861.186 - 1.351ms returns FALSE
T5F50 000:867.007 JLINK_IsHalted()
T5F50 000:868.215 - 1.299ms returns FALSE
T5F50 000:870.021 JLINK_IsHalted()
T5F50 000:872.056 - 2.155ms returns FALSE
T5F50 000:874.014 JLINK_IsHalted()
T5F50 000:875.249 - 1.354ms returns FALSE
T5F50 000:880.973 JLINK_IsHalted()
T5F50 000:889.561   CPU_ReadMem(2 bytes @ 0x20000000)
T5F50 000:890.631 - 9.699ms returns TRUE
T5F50 000:890.694 JLINK_ReadReg(R15 (PC))
T5F50 000:890.726 - 0.045ms returns 0x20000000
T5F50 000:890.755 JLINK_ClrBPEx(BPHandle = 0x00000007)
T5F50 000:890.783 - 0.041ms returns 0x00
T5F50 000:890.840 JLINK_ReadReg(R0)
T5F50 000:890.867 - 0.040ms returns 0x00000000
T5F50 000:891.350 JLINK_WriteMem(0x20000164, 0x029C Bytes, ...)
T5F50 000:891.391   Data:  40 12 00 B2 56 49 54 4A 12 78 01 EB 82 01 21 F8 ...
T5F50 000:891.437   CPU_WriteMem(668 bytes @ 0x20000164)
T5F50 000:912.844 - 21.534ms returns 0x29C
T5F50 000:912.906 JLINK_WriteMem(0x20000400, 0x0164 Bytes, ...)
T5F50 000:912.936   Data:  30 46 00 F0 7B FF 01 F0 1F F8 00 F0 F5 FF 0A 20 ...
T5F50 000:912.986   CPU_WriteMem(356 bytes @ 0x20000400)
T5F50 000:925.060 - 12.203ms returns 0x164
T5F50 000:925.147 JLINK_WriteReg(R0, 0x08000C00)
T5F50 000:925.191 - 0.063ms returns 0x00
T5F50 000:925.265 JLINK_WriteReg(R1, 0x00000400)
T5F50 000:925.304 - 0.057ms returns 0x00
T5F50 000:925.343 JLINK_WriteReg(R2, 0x20000164)
T5F50 000:925.450 - 0.125ms returns 0x00
T5F50 000:925.490 JLINK_WriteReg(R3, 0x00000000)
T5F50 000:925.526 - 0.054ms returns 0x00
T5F50 000:925.564 JLINK_WriteReg(R4, 0x00000000)
T5F50 000:925.600 - 0.053ms returns 0x00
T5F50 000:925.638 JLINK_WriteReg(R5, 0x00000000)
T5F50 000:925.674 - 0.053ms returns 0x00
T5F50 000:925.712 JLINK_WriteReg(R6, 0x00000000)
T5F50 000:925.748 - 0.056ms returns 0x00
T5F50 000:925.789 JLINK_WriteReg(R7, 0x00000000)
T5F50 000:925.833 - 0.064ms returns 0x00
T5F50 000:925.873 JLINK_WriteReg(R8, 0x00000000)
T5F50 000:925.910 - 0.055ms returns 0x00
T5F50 000:925.949 JLINK_WriteReg(R9, 0x20000160)
T5F50 000:925.985 - 0.053ms returns 0x00
T5F50 000:926.022 JLINK_WriteReg(R10, 0x00000000)
T5F50 000:926.058 - 0.054ms returns 0x00
T5F50 000:926.096 JLINK_WriteReg(R11, 0x00000000)
T5F50 000:926.132 - 0.055ms returns 0x00
T5F50 000:926.171 JLINK_WriteReg(R12, 0x00000000)
T5F50 000:926.208 - 0.055ms returns 0x00
T5F50 000:926.247 JLINK_WriteReg(R13 (SP), 0x20000800)
T5F50 000:926.285 - 0.055ms returns 0x00
T5F50 000:926.323 JLINK_WriteReg(R14, 0x20000001)
T5F50 000:926.360 - 0.054ms returns 0x00
T5F50 000:926.398 JLINK_WriteReg(R15 (PC), 0x200000F4)
T5F50 000:926.434 - 0.054ms returns 0x00
T5F50 000:926.472 JLINK_WriteReg(XPSR, 0x01000000)
T5F50 000:926.508 - 0.054ms returns 0x00
T5F50 000:926.546 JLINK_WriteReg(MSP, 0x20000800)
T5F50 000:926.582 - 0.054ms returns 0x00
T5F50 000:926.620 JLINK_WriteReg(PSP, 0x20000800)
T5F50 000:926.656 - 0.053ms returns 0x00
T5F50 000:926.694 JLINK_WriteReg(CFBP, 0x00000000)
T5F50 000:926.731 - 0.056ms returns 0x00
T5F50 000:926.792   JLINK_SetBPEx(Addr = 0x20000000, Type = 0xFFFFFFF2)
T5F50 000:926.855 - 0.082ms returns 0x00000008
T5F50 000:926.894 JLINK_Go()
T5F50 000:926.941   CPU_ReadMem(4 bytes @ 0xE0001000)
T5F50 000:935.563 - 8.715ms
T5F50 000:935.634 JLINK_IsHalted()
T5F50 000:936.749 - 1.167ms returns FALSE
T5F50 000:941.888 JLINK_IsHalted()
T5F50 000:943.030 - 1.162ms returns FALSE
T5F50 000:945.031 JLINK_IsHalted()
T5F50 000:946.294 - 1.306ms returns FALSE
T5F50 000:947.982 JLINK_IsHalted()
T5F50 000:949.006 - 1.066ms returns FALSE
T5F50 000:950.944 JLINK_IsHalted()
T5F50 000:951.965 - 1.065ms returns FALSE
T5F50 000:953.932 JLINK_IsHalted()
T5F50 000:954.969 - 1.083ms returns FALSE
T5F50 000:956.896 JLINK_IsHalted()
T5F50 000:957.932 - 1.083ms returns FALSE
T5F50 000:961.906 JLINK_IsHalted()
T5F50 000:962.948 - 1.062ms returns FALSE
T5F50 000:964.902 JLINK_IsHalted()
T5F50 000:965.968 - 1.087ms returns FALSE
T5F50 000:967.904 JLINK_IsHalted()
T5F50 000:976.255   CPU_ReadMem(2 bytes @ 0x20000000)
T5F50 000:977.334 - 9.475ms returns TRUE
T5F50 000:977.405 JLINK_ReadReg(R15 (PC))
T5F50 000:977.441 - 0.052ms returns 0x20000000
T5F50 000:977.505 JLINK_ClrBPEx(BPHandle = 0x00000008)
T5F50 000:977.537 - 0.047ms returns 0x00
T5F50 000:977.569 JLINK_ReadReg(R0)
T5F50 000:977.601 - 0.046ms returns 0x00000000
T5F50 000:978.144 JLINK_WriteMem(0x20000164, 0x029C Bytes, ...)
T5F50 000:978.190   Data:  0B 12 43 EA 02 20 70 47 70 47 70 47 10 B5 00 24 ...
T5F50 000:978.244   CPU_WriteMem(668 bytes @ 0x20000164)
T5F50 001:000.411 - 22.310ms returns 0x29C
T5F50 001:000.479 JLINK_WriteMem(0x20000400, 0x0164 Bytes, ...)
T5F50 001:000.511   Data:  00 0C C0 F3 0E 00 48 F6 8F 71 08 40 1C 49 09 78 ...
T5F50 001:000.566   CPU_WriteMem(356 bytes @ 0x20000400)
T5F50 001:012.914 - 12.473ms returns 0x164
T5F50 001:013.003 JLINK_WriteReg(R0, 0x08001000)
T5F50 001:013.034 - 0.054ms returns 0x00
T5F50 001:013.100 JLINK_WriteReg(R1, 0x00000400)
T5F50 001:013.141 - 0.053ms returns 0x00
T5F50 001:013.167 JLINK_WriteReg(R2, 0x20000164)
T5F50 001:013.192 - 0.037ms returns 0x00
T5F50 001:013.219 JLINK_WriteReg(R3, 0x00000000)
T5F50 001:013.244 - 0.037ms returns 0x00
T5F50 001:013.270 JLINK_WriteReg(R4, 0x00000000)
T5F50 001:013.296 - 0.037ms returns 0x00
T5F50 001:013.322 JLINK_WriteReg(R5, 0x00000000)
T5F50 001:013.347 - 0.037ms returns 0x00
T5F50 001:013.373 JLINK_WriteReg(R6, 0x00000000)
T5F50 001:013.401 - 0.041ms returns 0x00
T5F50 001:013.429 JLINK_WriteReg(R7, 0x00000000)
T5F50 001:013.455 - 0.037ms returns 0x00
T5F50 001:013.481 JLINK_WriteReg(R8, 0x00000000)
T5F50 001:013.506 - 0.037ms returns 0x00
T5F50 001:013.532 JLINK_WriteReg(R9, 0x20000160)
T5F50 001:013.558 - 0.038ms returns 0x00
T5F50 001:013.585 JLINK_WriteReg(R10, 0x00000000)
T5F50 001:013.611 - 0.038ms returns 0x00
T5F50 001:013.638 JLINK_WriteReg(R11, 0x00000000)
T5F50 001:013.664 - 0.037ms returns 0x00
T5F50 001:013.690 JLINK_WriteReg(R12, 0x00000000)
T5F50 001:013.716 - 0.038ms returns 0x00
T5F50 001:013.742 JLINK_WriteReg(R13 (SP), 0x20000800)
T5F50 001:013.768 - 0.038ms returns 0x00
T5F50 001:013.795 JLINK_WriteReg(R14, 0x20000001)
T5F50 001:013.820 - 0.038ms returns 0x00
T5F50 001:013.847 JLINK_WriteReg(R15 (PC), 0x200000F4)
T5F50 001:013.872 - 0.037ms returns 0x00
T5F50 001:013.898 JLINK_WriteReg(XPSR, 0x01000000)
T5F50 001:013.923 - 0.037ms returns 0x00
T5F50 001:013.950 JLINK_WriteReg(MSP, 0x20000800)
T5F50 001:013.975 - 0.037ms returns 0x00
T5F50 001:014.001 JLINK_WriteReg(PSP, 0x20000800)
T5F50 001:014.026 - 0.038ms returns 0x00
T5F50 001:014.054 JLINK_WriteReg(CFBP, 0x00000000)
T5F50 001:014.079 - 0.037ms returns 0x00
T5F50 001:014.106   JLINK_SetBPEx(Addr = 0x20000000, Type = 0xFFFFFFF2)
T5F50 001:014.144 - 0.051ms returns 0x00000009
T5F50 001:014.171 JLINK_Go()
T5F50 001:014.204   CPU_ReadMem(4 bytes @ 0xE0001000)
T5F50 001:022.401 - 8.270ms
T5F50 001:022.461 JLINK_IsHalted()
T5F50 001:023.324 - 0.884ms returns FALSE
T5F50 001:026.172 JLINK_IsHalted()
T5F50 001:027.480 - 1.431ms returns FALSE
T5F50 001:029.105 JLINK_IsHalted()
T5F50 001:030.365 - 1.358ms returns FALSE
T5F50 001:032.164 JLINK_IsHalted()
T5F50 001:033.445 - 1.402ms returns FALSE
T5F50 001:043.136 JLINK_IsHalted()
T5F50 001:044.435 - 1.407ms returns FALSE
T5F50 001:047.041 JLINK_IsHalted()
T5F50 001:048.332 - 1.384ms returns FALSE
T5F50 001:050.100 JLINK_IsHalted()
T5F50 001:051.481 - 1.486ms returns FALSE
T5F50 001:053.114 JLINK_IsHalted()
T5F50 001:061.759   CPU_ReadMem(2 bytes @ 0x20000000)
T5F50 001:062.811 - 9.716ms returns TRUE
T5F50 001:062.848 JLINK_ReadReg(R15 (PC))
T5F50 001:062.877 - 0.041ms returns 0x20000000
T5F50 001:062.904 JLINK_ClrBPEx(BPHandle = 0x00000009)
T5F50 001:062.974 - 0.083ms returns 0x00
T5F50 001:063.001 JLINK_ReadReg(R0)
T5F50 001:063.047 - 0.058ms returns 0x00000000
T5F50 001:064.834 JLINK_WriteMem(0x20000164, 0x029C Bytes, ...)
T5F50 001:064.870   Data:  25 4A 91 81 1A 46 00 F1 09 01 12 F8 11 10 C1 F3 ...
T5F50 001:064.916   CPU_WriteMem(668 bytes @ 0x20000164)
T5F50 001:086.243 - 21.447ms returns 0x29C
T5F50 001:086.301 JLINK_WriteMem(0x20000400, 0x0164 Bytes, ...)
T5F50 001:086.328   Data:  90 FB F1 F0 00 B2 4E 49 08 80 08 46 B0 F9 00 00 ...
T5F50 001:086.375   CPU_WriteMem(356 bytes @ 0x20000400)
T5F50 001:098.474 - 12.284ms returns 0x164
T5F50 001:098.679 JLINK_WriteReg(R0, 0x08001400)
T5F50 001:098.826 - 0.227ms returns 0x00
T5F50 001:099.059 JLINK_WriteReg(R1, 0x00000400)
T5F50 001:099.167 - 0.159ms returns 0x00
T5F50 001:100.036 JLINK_WriteReg(R2, 0x20000164)
T5F50 001:100.186 - 0.204ms returns 0x00
T5F50 001:100.299 JLINK_WriteReg(R3, 0x00000000)
T5F50 001:100.402 - 0.153ms returns 0x00
T5F50 001:100.509 JLINK_WriteReg(R4, 0x00000000)
T5F50 001:100.609 - 0.150ms returns 0x00
T5F50 001:100.716 JLINK_WriteReg(R5, 0x00000000)
T5F50 001:100.823 - 0.159ms returns 0x00
T5F50 001:100.932 JLINK_WriteReg(R6, 0x00000000)
T5F50 001:101.033 - 0.151ms returns 0x00
T5F50 001:101.139 JLINK_WriteReg(R7, 0x00000000)
T5F50 001:101.240 - 0.151ms returns 0x00
T5F50 001:101.347 JLINK_WriteReg(R8, 0x00000000)
T5F50 001:101.447 - 0.151ms returns 0x00
T5F50 001:101.553 JLINK_WriteReg(R9, 0x20000160)
T5F50 001:101.656 - 0.155ms returns 0x00
T5F50 001:101.764 JLINK_WriteReg(R10, 0x00000000)
T5F50 001:101.871 - 0.158ms returns 0x00
T5F50 001:101.980 JLINK_WriteReg(R11, 0x00000000)
T5F50 001:102.081 - 0.151ms returns 0x00
T5F50 001:102.188 JLINK_WriteReg(R12, 0x00000000)
T5F50 001:102.296 - 0.164ms returns 0x00
T5F50 001:102.410 JLINK_WriteReg(R13 (SP), 0x20000800)
T5F50 001:102.513 - 0.155ms returns 0x00
T5F50 001:102.622 JLINK_WriteReg(R14, 0x20000001)
T5F50 001:102.723 - 0.152ms returns 0x00
T5F50 001:102.830 JLINK_WriteReg(R15 (PC), 0x200000F4)
T5F50 001:102.966 - 0.188ms returns 0x00
T5F50 001:103.074 JLINK_WriteReg(XPSR, 0x01000000)
T5F50 001:103.175 - 0.151ms returns 0x00
T5F50 001:103.282 JLINK_WriteReg(MSP, 0x20000800)
T5F50 001:103.382 - 0.150ms returns 0x00
T5F50 001:103.488 JLINK_WriteReg(PSP, 0x20000800)
T5F50 001:103.589 - 0.151ms returns 0x00
T5F50 001:103.695 JLINK_WriteReg(CFBP, 0x00000000)
T5F50 001:103.796 - 0.153ms returns 0x00
T5F50 001:103.908   JLINK_SetBPEx(Addr = 0x20000000, Type = 0xFFFFFFF2)
T5F50 001:104.060 - 0.210ms returns 0x0000000A
T5F50 001:104.181 JLINK_Go()
T5F50 001:104.306   CPU_ReadMem(4 bytes @ 0xE0001000)
T5F50 001:113.722 - 9.661ms
T5F50 001:113.920 JLINK_IsHalted()
T5F50 001:115.170 - 1.362ms returns FALSE
T5F50 001:119.858 JLINK_IsHalted()
T5F50 001:121.100 - 1.327ms returns FALSE
T5F50 001:125.878 JLINK_IsHalted()
T5F50 001:127.056 - 1.261ms returns FALSE
T5F50 001:128.893 JLINK_IsHalted()
T5F50 001:130.150 - 1.367ms returns FALSE
T5F50 001:136.859 JLINK_IsHalted()
T5F50 001:138.048 - 1.274ms returns FALSE
T5F50 001:139.808 JLINK_IsHalted()
T5F50 001:140.950 - 1.227ms returns FALSE
T5F50 001:143.051 JLINK_IsHalted()
T5F50 001:144.045 - 1.043ms returns FALSE
T5F50 001:148.013 JLINK_IsHalted()
T5F50 001:156.087   CPU_ReadMem(2 bytes @ 0x20000000)
T5F50 001:157.144 - 9.172ms returns TRUE
T5F50 001:157.211 JLINK_ReadReg(R15 (PC))
T5F50 001:157.242 - 0.045ms returns 0x20000000
T5F50 001:157.300 JLINK_ClrBPEx(BPHandle = 0x0000000A)
T5F50 001:157.329 - 0.041ms returns 0x00
T5F50 001:157.358 JLINK_ReadReg(R0)
T5F50 001:157.385 - 0.040ms returns 0x00000000
T5F50 001:157.875 JLINK_WriteMem(0x20000164, 0x029C Bytes, ...)
T5F50 001:157.916   Data:  70 47 70 47 70 47 70 47 70 47 00 00 2D E9 F0 47 ...
T5F50 001:157.963   CPU_WriteMem(668 bytes @ 0x20000164)
T5F50 001:179.566 - 21.735ms returns 0x29C
T5F50 001:179.634 JLINK_WriteMem(0x20000400, 0x0164 Bytes, ...)
T5F50 001:179.668   Data:  59 4F 2D E0 08 2D 07 D1 55 48 00 68 00 78 00 F0 ...
T5F50 001:179.725   CPU_WriteMem(356 bytes @ 0x20000400)
T5F50 001:191.773 - 12.192ms returns 0x164
T5F50 001:191.868 JLINK_WriteReg(R0, 0x08001800)
T5F50 001:191.918 - 0.072ms returns 0x00
T5F50 001:192.003 JLINK_WriteReg(R1, 0x00000400)
T5F50 001:192.046 - 0.064ms returns 0x00
T5F50 001:192.091 JLINK_WriteReg(R2, 0x20000164)
T5F50 001:192.135 - 0.065ms returns 0x00
T5F50 001:192.180 JLINK_WriteReg(R3, 0x00000000)
T5F50 001:192.224 - 0.064ms returns 0x00
T5F50 001:192.269 JLINK_WriteReg(R4, 0x00000000)
T5F50 001:192.313 - 0.064ms returns 0x00
T5F50 001:192.358 JLINK_WriteReg(R5, 0x00000000)
T5F50 001:192.401 - 0.064ms returns 0x00
T5F50 001:192.446 JLINK_WriteReg(R6, 0x00000000)
T5F50 001:192.489 - 0.064ms returns 0x00
T5F50 001:192.535 JLINK_WriteReg(R7, 0x00000000)
T5F50 001:192.578 - 0.078ms returns 0x00
T5F50 001:192.652 JLINK_WriteReg(R8, 0x00000000)
T5F50 001:192.699 - 0.068ms returns 0x00
T5F50 001:192.745 JLINK_WriteReg(R9, 0x20000160)
T5F50 001:192.787 - 0.063ms returns 0x00
T5F50 001:192.832 JLINK_WriteReg(R10, 0x00000000)
T5F50 001:192.875 - 0.064ms returns 0x00
T5F50 001:192.920 JLINK_WriteReg(R11, 0x00000000)
T5F50 001:192.962 - 0.064ms returns 0x00
T5F50 001:193.007 JLINK_WriteReg(R12, 0x00000000)
T5F50 001:193.049 - 0.062ms returns 0x00
T5F50 001:193.094 JLINK_WriteReg(R13 (SP), 0x20000800)
T5F50 001:193.136 - 0.064ms returns 0x00
T5F50 001:193.181 JLINK_WriteReg(R14, 0x20000001)
T5F50 001:193.223 - 0.062ms returns 0x00
T5F50 001:193.267 JLINK_WriteReg(R15 (PC), 0x200000F4)
T5F50 001:193.309 - 0.063ms returns 0x00
T5F50 001:193.353 JLINK_WriteReg(XPSR, 0x01000000)
T5F50 001:193.395 - 0.062ms returns 0x00
T5F50 001:193.440 JLINK_WriteReg(MSP, 0x20000800)
T5F50 001:193.481 - 0.062ms returns 0x00
T5F50 001:193.525 JLINK_WriteReg(PSP, 0x20000800)
T5F50 001:193.574 - 0.071ms returns 0x00
T5F50 001:193.621 JLINK_WriteReg(CFBP, 0x00000000)
T5F50 001:193.663 - 0.063ms returns 0x00
T5F50 001:193.708   JLINK_SetBPEx(Addr = 0x20000000, Type = 0xFFFFFFF2)
T5F50 001:193.772 - 0.085ms returns 0x0000000B
T5F50 001:193.816 JLINK_Go()
T5F50 001:193.869   CPU_ReadMem(4 bytes @ 0xE0001000)
T5F50 001:202.074 - 8.303ms
T5F50 001:202.159 JLINK_IsHalted()
T5F50 001:203.121 - 1.009ms returns FALSE
T5F50 001:208.796 JLINK_IsHalted()
T5F50 001:209.836 - 1.060ms returns FALSE
T5F50 001:211.794 JLINK_IsHalted()
T5F50 001:213.235 - 1.461ms returns FALSE
T5F50 001:214.874 JLINK_IsHalted()
T5F50 001:216.147 - 1.316ms returns FALSE
T5F50 001:217.788 JLINK_IsHalted()
T5F50 001:218.810 - 1.064ms returns FALSE
T5F50 001:220.787 JLINK_IsHalted()
T5F50 001:221.815 - 1.073ms returns FALSE
T5F50 001:223.724 JLINK_IsHalted()
T5F50 001:224.700 - 1.015ms returns FALSE
T5F50 001:227.600 JLINK_IsHalted()
T5F50 001:228.668 - 1.088ms returns FALSE
T5F50 001:230.740 JLINK_IsHalted()
T5F50 001:231.909 - 1.249ms returns FALSE
T5F50 001:233.579 JLINK_IsHalted()
T5F50 001:241.964   CPU_ReadMem(2 bytes @ 0x20000000)
T5F50 001:243.351 - 9.901ms returns TRUE
T5F50 001:243.572 JLINK_ReadReg(R15 (PC))
T5F50 001:243.699 - 0.187ms returns 0x20000000
T5F50 001:243.910 JLINK_ClrBPEx(BPHandle = 0x0000000B)
T5F50 001:244.029 - 0.177ms returns 0x00
T5F50 001:244.151 JLINK_ReadReg(R0)
T5F50 001:244.263 - 0.168ms returns 0x00000000
T5F50 001:245.993 JLINK_WriteMem(0x20000164, 0x029C Bytes, ...)
T5F50 001:246.134   Data:  54 04 00 20 75 59 00 08 00 50 00 40 80 03 00 20 ...
T5F50 001:246.321   CPU_WriteMem(668 bytes @ 0x20000164)
T5F50 001:267.929 - 22.048ms returns 0x29C
T5F50 001:268.122 JLINK_WriteMem(0x20000400, 0x0164 Bytes, ...)
T5F50 001:268.243   Data:  00 50 10 49 08 60 08 46 00 68 40 F4 80 50 08 60 ...
T5F50 001:268.441   CPU_WriteMem(356 bytes @ 0x20000400)
T5F50 001:280.726 - 12.725ms returns 0x164
T5F50 001:280.968 JLINK_WriteReg(R0, 0x08001C00)
T5F50 001:281.094 - 0.183ms returns 0x00
T5F50 001:281.294 JLINK_WriteReg(R1, 0x00000400)
T5F50 001:281.412 - 0.174ms returns 0x00
T5F50 001:281.531 JLINK_WriteReg(R2, 0x20000164)
T5F50 001:281.642 - 0.167ms returns 0x00
T5F50 001:281.761 JLINK_WriteReg(R3, 0x00000000)
T5F50 001:281.872 - 0.166ms returns 0x00
T5F50 001:281.989 JLINK_WriteReg(R4, 0x00000000)
T5F50 001:282.099 - 0.381ms returns 0x00
T5F50 001:282.477 JLINK_WriteReg(R5, 0x00000000)
T5F50 001:282.593 - 0.171ms returns 0x00
T5F50 001:282.710 JLINK_WriteReg(R6, 0x00000000)
T5F50 001:282.822 - 0.169ms returns 0x00
T5F50 001:282.943 JLINK_WriteReg(R7, 0x00000000)
T5F50 001:283.056 - 0.172ms returns 0x00
T5F50 001:283.178 JLINK_WriteReg(R8, 0x00000000)
T5F50 001:283.290 - 0.168ms returns 0x00
T5F50 001:283.411 JLINK_WriteReg(R9, 0x20000160)
T5F50 001:283.525 - 0.169ms returns 0x00
T5F50 001:283.643 JLINK_WriteReg(R10, 0x00000000)
T5F50 001:283.754 - 0.167ms returns 0x00
T5F50 001:283.872 JLINK_WriteReg(R11, 0x00000000)
T5F50 001:283.984 - 0.168ms returns 0x00
T5F50 001:284.102 JLINK_WriteReg(R12, 0x00000000)
T5F50 001:284.213 - 0.167ms returns 0x00
T5F50 001:284.331 JLINK_WriteReg(R13 (SP), 0x20000800)
T5F50 001:284.447 - 0.171ms returns 0x00
T5F50 001:284.564 JLINK_WriteReg(R14, 0x20000001)
T5F50 001:284.676 - 0.167ms returns 0x00
T5F50 001:284.793 JLINK_WriteReg(R15 (PC), 0x200000F4)
T5F50 001:284.905 - 0.167ms returns 0x00
T5F50 001:285.023 JLINK_WriteReg(XPSR, 0x01000000)
T5F50 001:285.134 - 0.167ms returns 0x00
T5F50 001:285.252 JLINK_WriteReg(MSP, 0x20000800)
T5F50 001:285.365 - 0.169ms returns 0x00
T5F50 001:285.483 JLINK_WriteReg(PSP, 0x20000800)
T5F50 001:285.595 - 0.167ms returns 0x00
T5F50 001:285.713 JLINK_WriteReg(CFBP, 0x00000000)
T5F50 001:285.824 - 0.166ms returns 0x00
T5F50 001:285.945   JLINK_SetBPEx(Addr = 0x20000000, Type = 0xFFFFFFF2)
T5F50 001:286.111 - 0.225ms returns 0x0000000C
T5F50 001:286.229 JLINK_Go()
T5F50 001:286.371   CPU_ReadMem(4 bytes @ 0xE0001000)
T5F50 001:295.287 - 9.139ms
T5F50 001:295.392 JLINK_IsHalted()
T5F50 001:296.613 - 1.278ms returns FALSE
T5F50 001:302.686 JLINK_IsHalted()
T5F50 001:303.736 - 1.090ms returns FALSE
T5F50 001:306.588 JLINK_IsHalted()
T5F50 001:307.623 - 1.075ms returns FALSE
T5F50 001:309.587 JLINK_IsHalted()
T5F50 001:310.609 - 1.063ms returns FALSE
T5F50 001:312.326 JLINK_IsHalted()
T5F50 001:313.295 - 0.990ms returns FALSE
T5F50 001:314.572 JLINK_IsHalted()
T5F50 001:315.593 - 1.060ms returns FALSE
T5F50 001:317.272 JLINK_IsHalted()
T5F50 001:318.238 - 0.993ms returns FALSE
T5F50 001:320.338 JLINK_IsHalted()
T5F50 001:321.508 - 1.189ms returns FALSE
T5F50 001:323.504 JLINK_IsHalted()
T5F50 001:324.639 - 1.155ms returns FALSE
T5F50 001:326.546 JLINK_IsHalted()
T5F50 001:334.774   CPU_ReadMem(2 bytes @ 0x20000000)
T5F50 001:335.786 - 9.286ms returns TRUE
T5F50 001:335.863 JLINK_ReadReg(R15 (PC))
T5F50 001:335.901 - 0.055ms returns 0x20000000
T5F50 001:335.969 JLINK_ClrBPEx(BPHandle = 0x0000000C)
T5F50 001:336.004 - 0.051ms returns 0x00
T5F50 001:336.040 JLINK_ReadReg(R0)
T5F50 001:336.074 - 0.050ms returns 0x00000000
T5F50 001:336.661 JLINK_WriteMem(0x20000164, 0x029C Bytes, ...)
T5F50 001:336.712   Data:  00 28 07 DD 0A 20 96 FB F0 F0 EB 49 B1 F9 04 10 ...
T5F50 001:336.769   CPU_WriteMem(668 bytes @ 0x20000164)
T5F50 001:358.019 - 21.400ms returns 0x29C
T5F50 001:358.084 JLINK_WriteMem(0x20000400, 0x0164 Bytes, ...)
T5F50 001:358.114   Data:  82 46 5A 48 41 68 50 46 FD F7 C8 FF 80 46 03 99 ...
T5F50 001:358.166   CPU_WriteMem(356 bytes @ 0x20000400)
T5F50 001:370.424 - 12.389ms returns 0x164
T5F50 001:370.508 JLINK_WriteReg(R0, 0x08002000)
T5F50 001:370.549 - 0.058ms returns 0x00
T5F50 001:370.645 JLINK_WriteReg(R1, 0x00000400)
T5F50 001:370.686 - 0.059ms returns 0x00
T5F50 001:370.726 JLINK_WriteReg(R2, 0x20000164)
T5F50 001:370.763 - 0.055ms returns 0x00
